T4B5C 000:026.876   SEGGER J-Link V6.90a Log File
T4B5C 000:026.947   DLL Compiled: Dec 14 2020 17:14:31
T4B5C 000:026.950   Logging started @ 2022-11-09 03:17
T4B5C 000:026.953 - 26.954ms
T4B5C 000:026.957 JLINK_SetWarnOutHandler(...)
T4B5C 000:026.960 - 0.005ms
T4B5C 000:026.964 JLINK_OpenEx(...)
T4B5C 000:027.728   Firmware: J-Link V11 compiled Jun  7 2021 15:48:52
T4B5C 000:027.919   Decompressing FW timestamp took 157 us
T4B5C 000:030.267   Hardware: V11.00
T4B5C 000:030.296   S/N: 941000024
T4B5C 000:030.300   OEM: SEGGER
T4B5C 000:030.304   Feature(s): GDB, JFlash, FlashDL, RDI, FlashBP
T4B5C 000:031.654   TELNET listener socket opened on port 19021
T4B5C 000:031.718   WEBSRV Starting webserver
T4B5C 000:031.799   WEBSRV Webserver running on local port 19080
T4B5C 000:031.804 - 4.841ms returns "O.K."
T4B5C 000:031.815 JLINK_SetErrorOutHandler(...)
T4B5C 000:031.818 - 0.004ms
T4B5C 000:031.827 JLINK_ExecCommand("ProjectFile = "E:\Myproject\EES\Richard\Buck_Boost Convertor\SW\BUCK_BOOST_Charge\Projects\FT32F0xx_StdPeriph_Templates\MDK-ARM\JLinkSettings.ini"", ...). 
T4B5C 000:036.978   Ref file found at: C:\Keil_v5\ARM\Segger\JLinkDevices.ref
T4B5C 000:037.062   XML referenced by ref file: C:\Program Files (x86)\SEGGER\JLink\JLinkDevices.xml
T4B5C 000:037.407   C:\Program Files (x86)\SEGGER\JLink\JLinkDevices.xml evaluated successfully.
T4B5C 000:052.205   Device "STM32F030R8" selected.
T4B5C 000:052.392 - 20.568ms returns 0x00
T4B5C 000:053.823 JLINK_ExecCommand("Device = FT32F072C8ATx", ...). 
T4B5C 000:055.222   Device "STM32F030R8" selected.
T4B5C 000:055.367 - 1.538ms returns 0x00
T4B5C 000:055.378 JLINK_GetHardwareVersion()
T4B5C 000:055.384 - 0.007ms returns 110000
T4B5C 000:055.388 JLINK_GetDLLVersion()
T4B5C 000:055.390 - 0.004ms returns 69001
T4B5C 000:055.394 JLINK_GetOEMString(...)
T4B5C 000:055.398 JLINK_GetFirmwareString(...)
T4B5C 000:055.400 - 0.004ms
T4B5C 000:059.056 JLINK_GetDLLVersion()
T4B5C 000:059.065 - 0.009ms returns 69001
T4B5C 000:059.069 JLINK_GetCompileDateTime()
T4B5C 000:059.072 - 0.004ms
T4B5C 000:061.387 JLINK_GetFirmwareString(...)
T4B5C 000:061.397 - 0.011ms
T4B5C 000:062.610 JLINK_GetHardwareVersion()
T4B5C 000:062.618 - 0.009ms returns 110000
T4B5C 000:063.798 JLINK_GetSN()
T4B5C 000:063.805 - 0.008ms returns 941000024
T4B5C 000:064.987 JLINK_GetOEMString(...)
T4B5C 000:067.323 JLINK_TIF_Select(JLINKARM_TIF_SWD)
T4B5C 000:068.011 - 0.694ms returns 0x00
T4B5C 000:068.021 JLINK_HasError()
T4B5C 000:068.029 JLINK_SetSpeed(33000)
T4B5C 000:068.162 - 0.135ms
T4B5C 000:068.168 JLINK_GetId()
T4B5C 000:071.721   Found SW-DP with ID 0x0BB11477
T4B5C 000:097.560   Found SW-DP with ID 0x0BB11477
T4B5C 000:100.443   DPIDR: 0x0BB11477
T4B5C 000:101.639   Scanning AP map to find all available APs
T4B5C 000:103.066   AP[1]: Stopped AP scan as end of AP map has been reached
T4B5C 000:104.258   AP[0]: AHB-AP (IDR: 0x04770021)
T4B5C 000:108.845   Iterating through AP map to find AHB-AP to use
T4B5C 000:110.347   AP[0]: Core found
T4B5C 000:111.505   AP[0]: AHB-AP ROM base: 0xE00FF000
T4B5C 000:112.772   CPUID register: 0x410CC200. Implementer code: 0x41 (ARM)
T4B5C 000:113.903   Found Cortex-M0 r0p0, Little endian.
T4B5C 000:214.544   -- Max. mem block: 0x00004518
T4B5C 000:214.708   CPU_ReadMem(4 bytes @ 0xE000EDF0)
T4B5C 000:214.964   CPU_ReadMem(4 bytes @ 0xE0002000)
T4B5C 000:219.551   FPUnit: 4 code (BP) slots and 0 literal slots
T4B5C 000:219.573   CPU_ReadMem(4 bytes @ 0xE000EDFC)
T4B5C 000:219.767   CPU_WriteMem(4 bytes @ 0xE000EDFC)
T4B5C 000:219.924   CPU_ReadMem(4 bytes @ 0xE0001000)
T4B5C 000:220.148   CPU_WriteMem(4 bytes @ 0xE0001000)
T4B5C 000:222.907   CoreSight components:
T4B5C 000:225.377   ROMTbl[0] @ E00FF000
T4B5C 000:225.395   CPU_ReadMem(64 bytes @ 0xE00FF000)
T4B5C 000:225.663   CPU_ReadMem(32 bytes @ 0xE000EFE0)
T4B5C 000:228.244   ROMTbl[0][0]: E000E000, CID: B105E00D, PID: 000BB008 SCS
T4B5C 000:228.263   CPU_ReadMem(32 bytes @ 0xE0001FE0)
T4B5C 000:231.883   ROMTbl[0][1]: E0001000, CID: B105E00D, PID: 000BB00A DWT
T4B5C 000:231.964   CPU_ReadMem(32 bytes @ 0xE0002FE0)
T4B5C 000:234.674   ROMTbl[0][2]: E0002000, CID: B105E00D, PID: 000BB00B FPB
T4B5C 000:234.877 - 166.717ms returns 0x0BB11477
T4B5C 000:234.895 JLINK_GetDLLVersion()
T4B5C 000:234.901 - 0.007ms returns 69001
T4B5C 000:234.934 JLINK_CORE_GetFound()
T4B5C 000:234.940 - 0.008ms returns 0x60000FF
T4B5C 000:234.946 JLINK_GetDebugInfo(0x100 = JLINKARM_ROM_TABLE_ADDR_INDEX)
T4B5C 000:234.952   Value=0xE00FF000
T4B5C 000:234.959 - 0.014ms returns 0
T4B5C 000:237.372 JLINK_GetDebugInfo(0x100 = JLINKARM_ROM_TABLE_ADDR_INDEX)
T4B5C 000:237.386   Value=0xE00FF000
T4B5C 000:237.393 - 0.024ms returns 0
T4B5C 000:237.400 JLINK_GetDebugInfo(0x101 = JLINKARM_DEBUG_INFO_ETM_ADDR_INDEX)
T4B5C 000:237.405   Value=0x00000000
T4B5C 000:237.411 - 0.014ms returns 0
T4B5C 000:237.423 JLINK_ReadMem(0xE0041FF0, 0x10 Bytes, ...)
T4B5C 000:237.445   CPU_ReadMem(16 bytes @ 0xE0041FF0)
T4B5C 000:237.658   Data:  00 00 00 00 00 00 00 00 00 00 00 00 00 00 00 00
T4B5C 000:237.673 - 0.252ms returns 0
T4B5C 000:237.680 JLINK_GetDebugInfo(0x102 = JLINKARM_DEBUG_INFO_MTB_ADDR_INDEX)
T4B5C 000:237.686   Value=0x00000000
T4B5C 000:237.693 - 0.014ms returns 0
T4B5C 000:237.699 JLINK_GetDebugInfo(0x103 = JLINKARM_DEBUG_INFO_TPIU_ADDR_INDEX)
T4B5C 000:237.704   Value=0x00000000
T4B5C 000:237.710 - 0.013ms returns 0
T4B5C 000:237.715 JLINK_ReadMem(0xE0040FF0, 0x10 Bytes, ...)
T4B5C 000:237.726   CPU_ReadMem(16 bytes @ 0xE0040FF0)
T4B5C 000:237.875   Data:  00 00 00 00 00 00 00 00 00 00 00 00 00 00 00 00
T4B5C 000:237.885 - 0.172ms returns 0
T4B5C 000:237.893 JLINK_GetDebugInfo(0x104 = JLINKARM_DEBUG_INFO_ITM_ADDR_INDEX)
T4B5C 000:237.898   Value=0xE0000000
T4B5C 000:237.905 - 0.014ms returns 0
T4B5C 000:237.910 JLINK_GetDebugInfo(0x105 = JLINKARM_DEBUG_INFO_DWT_ADDR_INDEX)
T4B5C 000:237.915   Value=0xE0001000
T4B5C 000:237.922 - 0.013ms returns 0
T4B5C 000:237.927 JLINK_GetDebugInfo(0x106 = JLINKARM_DEBUG_INFO_FPB_ADDR_INDEX)
T4B5C 000:237.932   Value=0xE0002000
T4B5C 000:237.939 - 0.013ms returns 0
T4B5C 000:237.944 JLINK_GetDebugInfo(0x107 = JLINKARM_DEBUG_INFO_NVIC_ADDR_INDEX)
T4B5C 000:237.949   Value=0xE000E000
T4B5C 000:237.955 - 0.013ms returns 0
T4B5C 000:237.961 JLINK_GetDebugInfo(0x10C = JLINKARM_DEBUG_INFO_DBG_ADDR_INDEX)
T4B5C 000:237.966   Value=0xE000EDF0
T4B5C 000:237.972 - 0.013ms returns 0
T4B5C 000:237.978 JLINK_ReadMemU32(0xE000ED00, 0x1 Items)
T4B5C 000:237.988   CPU_ReadMem(4 bytes @ 0xE000ED00)
T4B5C 000:238.152   Data:  00 C2 0C 41
T4B5C 000:238.164   Debug reg: CPUID
T4B5C 000:238.171 - 0.195ms returns 1 (0x1)
T4B5C 000:238.178 JLINK_HasError()
T4B5C 000:238.185 JLINK_SetResetType(JLINKARM_CM3_RESET_TYPE_NORMAL)
T4B5C 000:238.190 - 0.007ms returns JLINKARM_CM3_RESET_TYPE_NORMAL
T4B5C 000:238.196 JLINK_Reset()
T4B5C 000:238.209   CPU is running
T4B5C 000:238.217   CPU_WriteMem(4 bytes @ 0xE000EDF0)
T4B5C 000:238.349   CPU is running
T4B5C 000:238.358   CPU_WriteMem(4 bytes @ 0xE000EDFC)
T4B5C 000:241.026   Reset: Halt core after reset via DEMCR.VC_CORERESET.
T4B5C 000:243.807   Reset: Reset device via AIRCR.SYSRESETREQ.
T4B5C 000:243.825   CPU is running
T4B5C 000:243.834   CPU_WriteMem(4 bytes @ 0xE000ED0C)
T4B5C 000:296.537   CPU_ReadMem(4 bytes @ 0xE000EDF0)
T4B5C 000:296.884   CPU_ReadMem(4 bytes @ 0xE000EDF0)
T4B5C 000:297.119   CPU is running
T4B5C 000:297.141   CPU_WriteMem(4 bytes @ 0xE000EDF0)
T4B5C 000:297.316   CPU is running
T4B5C 000:297.330   CPU_WriteMem(4 bytes @ 0xE000EDFC)
T4B5C 000:303.082   CPU_ReadMem(4 bytes @ 0xE000EDF0)
T4B5C 000:304.414   CPU_WriteMem(4 bytes @ 0xE0002000)
T4B5C 000:304.605   CPU_ReadMem(4 bytes @ 0xE000EDFC)
T4B5C 000:304.797   CPU_ReadMem(4 bytes @ 0xE0001000)
T4B5C 000:305.043   CPU_WriteMem(4 bytes @ 0xE0001000)
T4B5C 000:305.304 - 67.115ms
T4B5C 000:305.336 JLINK_Halt()
T4B5C 000:305.348 - 0.016ms returns 0x00
T4B5C 000:305.430 JLINK_IsHalted()
T4B5C 000:305.443 - 0.017ms returns TRUE
T4B5C 000:305.456 JLINK_ReadMemU32(0xE000EDF0, 0x1 Items)
T4B5C 000:305.477   CPU_ReadMem(4 bytes @ 0xE000EDF0)
T4B5C 000:305.679   Data:  03 00 03 00
T4B5C 000:305.696   Debug reg: DHCSR
T4B5C 000:305.710 - 0.259ms returns 1 (0x1)
T4B5C 000:305.729 JLINK_WriteU32_64(0xE000EDF0, 0xA05F0003)
T4B5C 000:305.740   Debug reg: DHCSR
T4B5C 000:306.227   CPU_WriteMem(4 bytes @ 0xE000EDF0)
T4B5C 000:306.411 - 0.688ms returns 0 (0x00000000)
T4B5C 000:306.426 JLINK_WriteU32_64(0xE000EDFC, 0x01000000)
T4B5C 000:306.437   Debug reg: DEMCR
T4B5C 000:306.456   CPU_WriteMem(4 bytes @ 0xE000EDFC)
T4B5C 000:306.624 - 0.203ms returns 0 (0x00000000)
T4B5C 000:315.703 JLINK_GetHWStatus(...)
T4B5C 000:315.801 - 0.100ms returns 0
T4B5C 000:319.358 JLINK_GetNumBPUnits(Type = 0xFFFFFF00)
T4B5C 000:319.368 - 0.011ms returns 0x04
T4B5C 000:319.373 JLINK_GetNumBPUnits(Type = 0xF0)
T4B5C 000:319.375 - 0.004ms returns 0x2000
T4B5C 000:319.379 JLINK_GetNumWPUnits()
T4B5C 000:319.382 - 0.004ms returns 2
T4B5C 000:322.846 JLINK_GetSpeed()
T4B5C 000:322.855 - 0.009ms returns 15000
T4B5C 000:328.028 JLINK_ReadMemU32(0xE000E004, 0x1 Items)
T4B5C 000:328.048   CPU_ReadMem(4 bytes @ 0xE000E004)
T4B5C 000:328.210   Data:  00 00 00 00
T4B5C 000:328.216 - 0.189ms returns 1 (0x1)
T4B5C 000:328.223 JLINK_Halt()
T4B5C 000:328.226 - 0.004ms returns 0x00
T4B5C 000:328.230 JLINK_IsHalted()
T4B5C 000:328.233 - 0.004ms returns TRUE
T4B5C 000:329.806 JLINK_WriteMem(0x20000000, 0x178 Bytes, ...)
T4B5C 000:329.813   Data:  00 BE 0A E0 0D 78 2D 06 68 40 08 24 40 00 00 D3 ...
T4B5C 000:329.989   CPU_WriteMem(376 bytes @ 0x20000000)
T4B5C 000:330.787 - 0.984ms returns 0x178
T4B5C 000:330.818 JLINK_HasError()
T4B5C 000:330.823 JLINK_WriteReg(R0, 0x08000000)
T4B5C 000:330.827 - 0.006ms returns 0
T4B5C 000:330.831 JLINK_WriteReg(R1, 0x00B71B00)
T4B5C 000:330.834 - 0.004ms returns 0
T4B5C 000:330.837 JLINK_WriteReg(R2, 0x00000001)
T4B5C 000:330.840 - 0.004ms returns 0
T4B5C 000:330.843 JLINK_WriteReg(R3, 0x00000000)
T4B5C 000:330.846 - 0.004ms returns 0
T4B5C 000:330.849 JLINK_WriteReg(R4, 0x00000000)
T4B5C 000:330.852 - 0.004ms returns 0
T4B5C 000:330.855 JLINK_WriteReg(R5, 0x00000000)
T4B5C 000:330.858 - 0.004ms returns 0
T4B5C 000:330.861 JLINK_WriteReg(R6, 0x00000000)
T4B5C 000:330.864 - 0.004ms returns 0
T4B5C 000:330.867 JLINK_WriteReg(R7, 0x00000000)
T4B5C 000:330.870 - 0.004ms returns 0
T4B5C 000:330.873 JLINK_WriteReg(R8, 0x00000000)
T4B5C 000:330.880 - 0.008ms returns 0
T4B5C 000:330.883 JLINK_WriteReg(R9, 0x20000174)
T4B5C 000:330.886 - 0.004ms returns 0
T4B5C 000:330.889 JLINK_WriteReg(R10, 0x00000000)
T4B5C 000:330.892 - 0.004ms returns 0
T4B5C 000:330.895 JLINK_WriteReg(R11, 0x00000000)
T4B5C 000:330.898 - 0.004ms returns 0
T4B5C 000:330.901 JLINK_WriteReg(R12, 0x00000000)
T4B5C 000:330.904 - 0.004ms returns 0
T4B5C 000:330.907 JLINK_WriteReg(R13 (SP), 0x20001000)
T4B5C 000:330.911 - 0.004ms returns 0
T4B5C 000:330.914 JLINK_WriteReg(R14, 0x20000001)
T4B5C 000:330.917 - 0.004ms returns 0
T4B5C 000:330.920 JLINK_WriteReg(R15 (PC), 0x20000038)
T4B5C 000:330.924 - 0.005ms returns 0
T4B5C 000:330.927 JLINK_WriteReg(XPSR, 0x01000000)
T4B5C 000:330.930 - 0.004ms returns 0
T4B5C 000:330.933 JLINK_WriteReg(MSP, 0x20001000)
T4B5C 000:330.936 - 0.004ms returns 0
T4B5C 000:330.939 JLINK_WriteReg(PSP, 0x20001000)
T4B5C 000:330.942 - 0.004ms returns 0
T4B5C 000:330.945 JLINK_WriteReg(CFBP, 0x00000000)
T4B5C 000:330.948 - 0.004ms returns 0
T4B5C 000:330.951 JLINK_SetBPEx(Addr = 0x20000000, Type = 0xFFFFFFF2)
T4B5C 000:330.957   CPU_ReadMem(2 bytes @ 0x20000000)
T4B5C 000:331.105 - 0.155ms returns 0x00000001
T4B5C 000:331.109 JLINK_Go()
T4B5C 000:331.114   CPU_WriteMem(2 bytes @ 0x20000000)
T4B5C 000:331.350   CPU_ReadMem(4 bytes @ 0xE0001000)
T4B5C 000:331.520   CPU_WriteMem(4 bytes @ 0xE0001000)
T4B5C 000:331.526   CPU_WriteMem(4 bytes @ 0xE0002008)
T4B5C 000:331.530   CPU_WriteMem(4 bytes @ 0xE000200C)
T4B5C 000:331.534   CPU_WriteMem(4 bytes @ 0xE0002010)
T4B5C 000:331.539   CPU_WriteMem(4 bytes @ 0xE0002014)
T4B5C 000:332.063   CPU_WriteMem(4 bytes @ 0xE0001004)
T4B5C 000:333.193 - 2.094ms
T4B5C 000:333.211 JLINK_IsHalted()
T4B5C 000:334.247   CPU_ReadMem(2 bytes @ 0x20000000)
T4B5C 000:334.398 - 1.189ms returns TRUE
T4B5C 000:334.403 JLINK_ReadReg(R15 (PC))
T4B5C 000:334.407 - 0.005ms returns 0x20000000
T4B5C 000:334.411 JLINK_ClrBPEx(BPHandle = 0x00000001)
T4B5C 000:334.414 - 0.004ms returns 0x00
T4B5C 000:334.417 JLINK_ReadReg(R0)
T4B5C 000:334.420 - 0.004ms returns 0x00000000
T4B5C 000:334.541 JLINK_HasError()
T4B5C 000:334.546 JLINK_WriteReg(R0, 0x08000000)
T4B5C 000:334.550 - 0.005ms returns 0
T4B5C 000:334.553 JLINK_WriteReg(R1, 0x00000400)
T4B5C 000:334.556 - 0.004ms returns 0
T4B5C 000:334.559 JLINK_WriteReg(R2, 0x000000FF)
T4B5C 000:334.562 - 0.004ms returns 0
T4B5C 000:334.566 JLINK_WriteReg(R3, 0x00000000)
T4B5C 000:334.568 - 0.004ms returns 0
T4B5C 000:334.572 JLINK_WriteReg(R4, 0x00000000)
T4B5C 000:334.575 - 0.004ms returns 0
T4B5C 000:334.578 JLINK_WriteReg(R5, 0x00000000)
T4B5C 000:334.581 - 0.004ms returns 0
T4B5C 000:334.584 JLINK_WriteReg(R6, 0x00000000)
T4B5C 000:334.587 - 0.004ms returns 0
T4B5C 000:334.590 JLINK_WriteReg(R7, 0x00000000)
T4B5C 000:334.593 - 0.004ms returns 0
T4B5C 000:334.596 JLINK_WriteReg(R8, 0x00000000)
T4B5C 000:334.599 - 0.004ms returns 0
T4B5C 000:334.602 JLINK_WriteReg(R9, 0x20000174)
T4B5C 000:334.605 - 0.004ms returns 0
T4B5C 000:334.608 JLINK_WriteReg(R10, 0x00000000)
T4B5C 000:334.611 - 0.004ms returns 0
T4B5C 000:334.614 JLINK_WriteReg(R11, 0x00000000)
T4B5C 000:334.617 - 0.004ms returns 0
T4B5C 000:334.621 JLINK_WriteReg(R12, 0x00000000)
T4B5C 000:334.623 - 0.004ms returns 0
T4B5C 000:334.627 JLINK_WriteReg(R13 (SP), 0x20001000)
T4B5C 000:334.630 - 0.004ms returns 0
T4B5C 000:334.633 JLINK_WriteReg(R14, 0x20000001)
T4B5C 000:334.636 - 0.004ms returns 0
T4B5C 000:334.640 JLINK_WriteReg(R15 (PC), 0x20000020)
T4B5C 000:334.642 - 0.004ms returns 0
T4B5C 000:334.646 JLINK_WriteReg(XPSR, 0x01000000)
T4B5C 000:334.649 - 0.004ms returns 0
T4B5C 000:334.652 JLINK_WriteReg(MSP, 0x20001000)
T4B5C 000:334.655 - 0.004ms returns 0
T4B5C 000:334.658 JLINK_WriteReg(PSP, 0x20001000)
T4B5C 000:334.661 - 0.004ms returns 0
T4B5C 000:334.664 JLINK_WriteReg(CFBP, 0x00000000)
T4B5C 000:334.667 - 0.004ms returns 0
T4B5C 000:334.670 JLINK_SetBPEx(Addr = 0x20000000, Type = 0xFFFFFFF2)
T4B5C 000:334.674 - 0.004ms returns 0x00000002
T4B5C 000:334.677 JLINK_Go()
T4B5C 000:334.683   CPU_ReadMem(4 bytes @ 0xE0001000)
T4B5C 000:334.798   CPU_WriteMem(4 bytes @ 0xE0001000)
T4B5C 000:336.059 - 1.384ms
T4B5C 000:336.064 JLINK_IsHalted()
T4B5C 000:337.122   CPU_ReadMem(2 bytes @ 0x20000000)
T4B5C 000:337.277 - 1.216ms returns TRUE
T4B5C 000:337.283 JLINK_ReadReg(R15 (PC))
T4B5C 000:337.287 - 0.005ms returns 0x20000000
T4B5C 000:337.291 JLINK_ClrBPEx(BPHandle = 0x00000002)
T4B5C 000:337.294 - 0.004ms returns 0x00
T4B5C 000:337.298 JLINK_ReadReg(R0)
T4B5C 000:337.300 - 0.004ms returns 0x00000001
T4B5C 000:337.304 JLINK_HasError()
T4B5C 000:337.307 JLINK_WriteReg(R0, 0x08000000)
T4B5C 000:337.311 - 0.004ms returns 0
T4B5C 000:337.314 JLINK_WriteReg(R1, 0x00000400)
T4B5C 000:337.317 - 0.004ms returns 0
T4B5C 000:337.320 JLINK_WriteReg(R2, 0x000000FF)
T4B5C 000:337.323 - 0.004ms returns 0
T4B5C 000:337.326 JLINK_WriteReg(R3, 0x00000000)
T4B5C 000:337.329 - 0.004ms returns 0
T4B5C 000:337.333 JLINK_WriteReg(R4, 0x00000000)
T4B5C 000:337.335 - 0.004ms returns 0
T4B5C 000:337.339 JLINK_WriteReg(R5, 0x00000000)
T4B5C 000:337.342 - 0.004ms returns 0
T4B5C 000:337.345 JLINK_WriteReg(R6, 0x00000000)
T4B5C 000:337.348 - 0.004ms returns 0
T4B5C 000:337.351 JLINK_WriteReg(R7, 0x00000000)
T4B5C 000:337.354 - 0.004ms returns 0
T4B5C 000:337.357 JLINK_WriteReg(R8, 0x00000000)
T4B5C 000:337.360 - 0.004ms returns 0
T4B5C 000:337.363 JLINK_WriteReg(R9, 0x20000174)
T4B5C 000:337.366 - 0.004ms returns 0
T4B5C 000:337.369 JLINK_WriteReg(R10, 0x00000000)
T4B5C 000:337.372 - 0.004ms returns 0
T4B5C 000:337.376 JLINK_WriteReg(R11, 0x00000000)
T4B5C 000:337.378 - 0.004ms returns 0
T4B5C 000:337.382 JLINK_WriteReg(R12, 0x00000000)
T4B5C 000:337.419 - 0.038ms returns 0
T4B5C 000:337.422 JLINK_WriteReg(R13 (SP), 0x20001000)
T4B5C 000:337.425 - 0.004ms returns 0
T4B5C 000:337.429 JLINK_WriteReg(R14, 0x20000001)
T4B5C 000:337.431 - 0.004ms returns 0
T4B5C 000:337.435 JLINK_WriteReg(R15 (PC), 0x200000C0)
T4B5C 000:337.438 - 0.004ms returns 0
T4B5C 000:337.441 JLINK_WriteReg(XPSR, 0x01000000)
T4B5C 000:337.444 - 0.004ms returns 0
T4B5C 000:337.447 JLINK_WriteReg(MSP, 0x20001000)
T4B5C 000:337.450 - 0.004ms returns 0
T4B5C 000:337.453 JLINK_WriteReg(PSP, 0x20001000)
T4B5C 000:337.456 - 0.004ms returns 0
T4B5C 000:337.459 JLINK_WriteReg(CFBP, 0x00000000)
T4B5C 000:337.462 - 0.004ms returns 0
T4B5C 000:337.466 JLINK_SetBPEx(Addr = 0x20000000, Type = 0xFFFFFFF2)
T4B5C 000:337.469 - 0.004ms returns 0x00000003
T4B5C 000:337.472 JLINK_Go()
T4B5C 000:337.478   CPU_ReadMem(4 bytes @ 0xE0001000)
T4B5C 000:337.589   CPU_WriteMem(4 bytes @ 0xE0001000)
T4B5C 000:338.838 - 1.369ms
T4B5C 000:338.845 JLINK_IsHalted()
T4B5C 000:339.024 - 0.181ms returns FALSE
T4B5C 000:339.029 JLINK_HasError()
T4B5C 000:347.104 JLINK_IsHalted()
T4B5C 000:347.993   CPU_ReadMem(2 bytes @ 0x20000000)
T4B5C 000:348.149 - 1.047ms returns TRUE
T4B5C 000:348.154 JLINK_ReadReg(R15 (PC))
T4B5C 000:348.158 - 0.005ms returns 0x20000000
T4B5C 000:348.162 JLINK_ClrBPEx(BPHandle = 0x00000003)
T4B5C 000:348.165 - 0.004ms returns 0x00
T4B5C 000:348.169 JLINK_ReadReg(R0)
T4B5C 000:348.172 - 0.004ms returns 0x00000000
T4B5C 000:348.361 JLINK_HasError()
T4B5C 000:348.368 JLINK_WriteReg(R0, 0x08000400)
T4B5C 000:348.373 - 0.006ms returns 0
T4B5C 000:348.376 JLINK_WriteReg(R1, 0x00000400)
T4B5C 000:348.379 - 0.004ms returns 0
T4B5C 000:348.382 JLINK_WriteReg(R2, 0x000000FF)
T4B5C 000:348.385 - 0.004ms returns 0
T4B5C 000:348.389 JLINK_WriteReg(R3, 0x00000000)
T4B5C 000:348.391 - 0.004ms returns 0
T4B5C 000:348.395 JLINK_WriteReg(R4, 0x00000000)
T4B5C 000:348.398 - 0.004ms returns 0
T4B5C 000:348.401 JLINK_WriteReg(R5, 0x00000000)
T4B5C 000:348.404 - 0.004ms returns 0
T4B5C 000:348.407 JLINK_WriteReg(R6, 0x00000000)
T4B5C 000:348.410 - 0.004ms returns 0
T4B5C 000:348.413 JLINK_WriteReg(R7, 0x00000000)
T4B5C 000:348.416 - 0.004ms returns 0
T4B5C 000:348.419 JLINK_WriteReg(R8, 0x00000000)
T4B5C 000:348.422 - 0.004ms returns 0
T4B5C 000:348.426 JLINK_WriteReg(R9, 0x20000174)
T4B5C 000:348.428 - 0.004ms returns 0
T4B5C 000:348.432 JLINK_WriteReg(R10, 0x00000000)
T4B5C 000:348.435 - 0.004ms returns 0
T4B5C 000:348.438 JLINK_WriteReg(R11, 0x00000000)
T4B5C 000:348.441 - 0.004ms returns 0
T4B5C 000:348.444 JLINK_WriteReg(R12, 0x00000000)
T4B5C 000:348.447 - 0.004ms returns 0
T4B5C 000:348.450 JLINK_WriteReg(R13 (SP), 0x20001000)
T4B5C 000:348.453 - 0.004ms returns 0
T4B5C 000:348.456 JLINK_WriteReg(R14, 0x20000001)
T4B5C 000:348.459 - 0.004ms returns 0
T4B5C 000:348.463 JLINK_WriteReg(R15 (PC), 0x20000020)
T4B5C 000:348.466 - 0.004ms returns 0
T4B5C 000:348.469 JLINK_WriteReg(XPSR, 0x01000000)
T4B5C 000:348.472 - 0.004ms returns 0
T4B5C 000:348.475 JLINK_WriteReg(MSP, 0x20001000)
T4B5C 000:348.478 - 0.004ms returns 0
T4B5C 000:348.481 JLINK_WriteReg(PSP, 0x20001000)
T4B5C 000:348.484 - 0.004ms returns 0
T4B5C 000:348.488 JLINK_WriteReg(CFBP, 0x00000000)
T4B5C 000:348.490 - 0.004ms returns 0
T4B5C 000:348.494 JLINK_SetBPEx(Addr = 0x20000000, Type = 0xFFFFFFF2)
T4B5C 000:348.497 - 0.004ms returns 0x00000004
T4B5C 000:348.501 JLINK_Go()
T4B5C 000:348.507   CPU_ReadMem(4 bytes @ 0xE0001000)
T4B5C 000:348.620   CPU_WriteMem(4 bytes @ 0xE0001000)
T4B5C 000:349.841 - 1.344ms
T4B5C 000:349.848 JLINK_IsHalted()
T4B5C 000:350.024 - 0.177ms returns FALSE
T4B5C 000:350.028 JLINK_HasError()
T4B5C 000:352.114 JLINK_IsHalted()
T4B5C 000:352.991   CPU_ReadMem(2 bytes @ 0x20000000)
T4B5C 000:353.145 - 1.033ms returns TRUE
T4B5C 000:353.150 JLINK_ReadReg(R15 (PC))
T4B5C 000:353.154 - 0.004ms returns 0x20000000
T4B5C 000:353.157 JLINK_ClrBPEx(BPHandle = 0x00000004)
T4B5C 000:353.160 - 0.004ms returns 0x00
T4B5C 000:353.166 JLINK_ReadReg(R0)
T4B5C 000:353.171 - 0.006ms returns 0x00000000
T4B5C 000:353.347 JLINK_HasError()
T4B5C 000:353.352 JLINK_WriteReg(R0, 0x08000800)
T4B5C 000:353.356 - 0.005ms returns 0
T4B5C 000:353.359 JLINK_WriteReg(R1, 0x00000400)
T4B5C 000:353.362 - 0.004ms returns 0
T4B5C 000:353.366 JLINK_WriteReg(R2, 0x000000FF)
T4B5C 000:353.368 - 0.004ms returns 0
T4B5C 000:353.372 JLINK_WriteReg(R3, 0x00000000)
T4B5C 000:353.374 - 0.004ms returns 0
T4B5C 000:353.378 JLINK_WriteReg(R4, 0x00000000)
T4B5C 000:353.381 - 0.004ms returns 0
T4B5C 000:353.384 JLINK_WriteReg(R5, 0x00000000)
T4B5C 000:353.387 - 0.004ms returns 0
T4B5C 000:353.390 JLINK_WriteReg(R6, 0x00000000)
T4B5C 000:353.393 - 0.004ms returns 0
T4B5C 000:353.396 JLINK_WriteReg(R7, 0x00000000)
T4B5C 000:353.399 - 0.004ms returns 0
T4B5C 000:353.402 JLINK_WriteReg(R8, 0x00000000)
T4B5C 000:353.405 - 0.004ms returns 0
T4B5C 000:353.408 JLINK_WriteReg(R9, 0x20000174)
T4B5C 000:353.411 - 0.004ms returns 0
T4B5C 000:353.414 JLINK_WriteReg(R10, 0x00000000)
T4B5C 000:353.417 - 0.004ms returns 0
T4B5C 000:353.421 JLINK_WriteReg(R11, 0x00000000)
T4B5C 000:353.424 - 0.004ms returns 0
T4B5C 000:353.427 JLINK_WriteReg(R12, 0x00000000)
T4B5C 000:353.430 - 0.004ms returns 0
T4B5C 000:353.433 JLINK_WriteReg(R13 (SP), 0x20001000)
T4B5C 000:353.436 - 0.004ms returns 0
T4B5C 000:353.439 JLINK_WriteReg(R14, 0x20000001)
T4B5C 000:353.442 - 0.004ms returns 0
T4B5C 000:353.445 JLINK_WriteReg(R15 (PC), 0x20000020)
T4B5C 000:353.449 - 0.004ms returns 0
T4B5C 000:353.452 JLINK_WriteReg(XPSR, 0x01000000)
T4B5C 000:353.455 - 0.004ms returns 0
T4B5C 000:353.458 JLINK_WriteReg(MSP, 0x20001000)
T4B5C 000:353.461 - 0.004ms returns 0
T4B5C 000:353.464 JLINK_WriteReg(PSP, 0x20001000)
T4B5C 000:353.467 - 0.004ms returns 0
T4B5C 000:353.471 JLINK_WriteReg(CFBP, 0x00000000)
T4B5C 000:353.474 - 0.004ms returns 0
T4B5C 000:353.477 JLINK_SetBPEx(Addr = 0x20000000, Type = 0xFFFFFFF2)
T4B5C 000:353.480 - 0.004ms returns 0x00000005
T4B5C 000:353.484 JLINK_Go()
T4B5C 000:353.490   CPU_ReadMem(4 bytes @ 0xE0001000)
T4B5C 000:353.598   CPU_WriteMem(4 bytes @ 0xE0001000)
T4B5C 000:354.837 - 1.357ms
T4B5C 000:354.844 JLINK_IsHalted()
T4B5C 000:355.867   CPU_ReadMem(2 bytes @ 0x20000000)
T4B5C 000:356.025 - 1.182ms returns TRUE
T4B5C 000:356.029 JLINK_ReadReg(R15 (PC))
T4B5C 000:356.033 - 0.005ms returns 0x20000000
T4B5C 000:356.036 JLINK_ClrBPEx(BPHandle = 0x00000005)
T4B5C 000:356.039 - 0.004ms returns 0x00
T4B5C 000:356.043 JLINK_ReadReg(R0)
T4B5C 000:356.046 - 0.004ms returns 0x00000001
T4B5C 000:356.049 JLINK_HasError()
T4B5C 000:356.053 JLINK_WriteReg(R0, 0x08000800)
T4B5C 000:356.056 - 0.004ms returns 0
T4B5C 000:356.059 JLINK_WriteReg(R1, 0x00000400)
T4B5C 000:356.062 - 0.004ms returns 0
T4B5C 000:356.065 JLINK_WriteReg(R2, 0x000000FF)
T4B5C 000:356.068 - 0.004ms returns 0
T4B5C 000:356.071 JLINK_WriteReg(R3, 0x00000000)
T4B5C 000:356.074 - 0.004ms returns 0
T4B5C 000:356.078 JLINK_WriteReg(R4, 0x00000000)
T4B5C 000:356.081 - 0.004ms returns 0
T4B5C 000:356.084 JLINK_WriteReg(R5, 0x00000000)
T4B5C 000:356.087 - 0.004ms returns 0
T4B5C 000:356.090 JLINK_WriteReg(R6, 0x00000000)
T4B5C 000:356.093 - 0.004ms returns 0
T4B5C 000:356.096 JLINK_WriteReg(R7, 0x00000000)
T4B5C 000:356.099 - 0.004ms returns 0
T4B5C 000:356.102 JLINK_WriteReg(R8, 0x00000000)
T4B5C 000:356.106 - 0.005ms returns 0
T4B5C 000:356.109 JLINK_WriteReg(R9, 0x20000174)
T4B5C 000:356.112 - 0.004ms returns 0
T4B5C 000:356.147 JLINK_WriteReg(R10, 0x00000000)
T4B5C 000:356.150 - 0.005ms returns 0
T4B5C 000:356.154 JLINK_WriteReg(R11, 0x00000000)
T4B5C 000:356.156 - 0.004ms returns 0
T4B5C 000:356.160 JLINK_WriteReg(R12, 0x00000000)
T4B5C 000:356.163 - 0.004ms returns 0
T4B5C 000:356.166 JLINK_WriteReg(R13 (SP), 0x20001000)
T4B5C 000:356.169 - 0.004ms returns 0
T4B5C 000:356.172 JLINK_WriteReg(R14, 0x20000001)
T4B5C 000:356.175 - 0.004ms returns 0
T4B5C 000:356.179 JLINK_WriteReg(R15 (PC), 0x200000C0)
T4B5C 000:356.182 - 0.004ms returns 0
T4B5C 000:356.187 JLINK_WriteReg(XPSR, 0x01000000)
T4B5C 000:356.191 - 0.005ms returns 0
T4B5C 000:356.194 JLINK_WriteReg(MSP, 0x20001000)
T4B5C 000:356.197 - 0.004ms returns 0
T4B5C 000:356.200 JLINK_WriteReg(PSP, 0x20001000)
T4B5C 000:356.203 - 0.004ms returns 0
T4B5C 000:356.207 JLINK_WriteReg(CFBP, 0x00000000)
T4B5C 000:356.209 - 0.004ms returns 0
T4B5C 000:356.213 JLINK_SetBPEx(Addr = 0x20000000, Type = 0xFFFFFFF2)
T4B5C 000:356.216 - 0.004ms returns 0x00000006
T4B5C 000:356.219 JLINK_Go()
T4B5C 000:356.225   CPU_ReadMem(4 bytes @ 0xE0001000)
T4B5C 000:356.338   CPU_WriteMem(4 bytes @ 0xE0001000)
T4B5C 000:357.559 - 1.341ms
T4B5C 000:357.564 JLINK_IsHalted()
T4B5C 000:357.782 - 0.220ms returns FALSE
T4B5C 000:357.786 JLINK_HasError()
T4B5C 000:359.102 JLINK_IsHalted()
T4B5C 000:359.216 - 0.115ms returns FALSE
T4B5C 000:359.220 JLINK_HasError()
T4B5C 000:361.109 JLINK_IsHalted()
T4B5C 000:361.988   CPU_ReadMem(2 bytes @ 0x20000000)
T4B5C 000:362.153 - 1.054ms returns TRUE
T4B5C 000:362.171 JLINK_ReadReg(R15 (PC))
T4B5C 000:362.180 - 0.012ms returns 0x20000000
T4B5C 000:362.187 JLINK_ClrBPEx(BPHandle = 0x00000006)
T4B5C 000:362.193 - 0.009ms returns 0x00
T4B5C 000:362.200 JLINK_ReadReg(R0)
T4B5C 000:362.206 - 0.008ms returns 0x00000000
T4B5C 000:362.566 JLINK_HasError()
T4B5C 000:362.578 JLINK_WriteReg(R0, 0x08000C00)
T4B5C 000:362.585 - 0.010ms returns 0
T4B5C 000:362.592 JLINK_WriteReg(R1, 0x00000400)
T4B5C 000:362.598 - 0.008ms returns 0
T4B5C 000:362.604 JLINK_WriteReg(R2, 0x000000FF)
T4B5C 000:362.609 - 0.007ms returns 0
T4B5C 000:362.615 JLINK_WriteReg(R3, 0x00000000)
T4B5C 000:362.621 - 0.007ms returns 0
T4B5C 000:362.627 JLINK_WriteReg(R4, 0x00000000)
T4B5C 000:362.632 - 0.008ms returns 0
T4B5C 000:362.638 JLINK_WriteReg(R5, 0x00000000)
T4B5C 000:362.644 - 0.007ms returns 0
T4B5C 000:362.650 JLINK_WriteReg(R6, 0x00000000)
T4B5C 000:362.655 - 0.008ms returns 0
T4B5C 000:362.661 JLINK_WriteReg(R7, 0x00000000)
T4B5C 000:362.677 - 0.017ms returns 0
T4B5C 000:362.682 JLINK_WriteReg(R8, 0x00000000)
T4B5C 000:362.686 - 0.004ms returns 0
T4B5C 000:362.689 JLINK_WriteReg(R9, 0x20000174)
T4B5C 000:362.692 - 0.004ms returns 0
T4B5C 000:362.695 JLINK_WriteReg(R10, 0x00000000)
T4B5C 000:362.698 - 0.004ms returns 0
T4B5C 000:362.702 JLINK_WriteReg(R11, 0x00000000)
T4B5C 000:362.704 - 0.004ms returns 0
T4B5C 000:362.708 JLINK_WriteReg(R12, 0x00000000)
T4B5C 000:362.711 - 0.004ms returns 0
T4B5C 000:362.714 JLINK_WriteReg(R13 (SP), 0x20001000)
T4B5C 000:362.717 - 0.004ms returns 0
T4B5C 000:362.720 JLINK_WriteReg(R14, 0x20000001)
T4B5C 000:362.723 - 0.004ms returns 0
T4B5C 000:362.726 JLINK_WriteReg(R15 (PC), 0x20000020)
T4B5C 000:362.729 - 0.004ms returns 0
T4B5C 000:362.733 JLINK_WriteReg(XPSR, 0x01000000)
T4B5C 000:362.736 - 0.004ms returns 0
T4B5C 000:362.739 JLINK_WriteReg(MSP, 0x20001000)
T4B5C 000:362.742 - 0.004ms returns 0
T4B5C 000:362.745 JLINK_WriteReg(PSP, 0x20001000)
T4B5C 000:362.748 - 0.004ms returns 0
T4B5C 000:362.751 JLINK_WriteReg(CFBP, 0x00000000)
T4B5C 000:362.754 - 0.004ms returns 0
T4B5C 000:362.757 JLINK_SetBPEx(Addr = 0x20000000, Type = 0xFFFFFFF2)
T4B5C 000:362.761 - 0.005ms returns 0x00000007
T4B5C 000:362.764 JLINK_Go()
T4B5C 000:362.771   CPU_ReadMem(4 bytes @ 0xE0001000)
T4B5C 000:362.883   CPU_WriteMem(4 bytes @ 0xE0001000)
T4B5C 000:364.061 - 1.299ms
T4B5C 000:364.066 JLINK_IsHalted()
T4B5C 000:364.273 - 0.209ms returns FALSE
T4B5C 000:364.278 JLINK_HasError()
T4B5C 000:366.105 JLINK_IsHalted()
T4B5C 000:366.992   CPU_ReadMem(2 bytes @ 0x20000000)
T4B5C 000:367.146 - 1.042ms returns TRUE
T4B5C 000:367.150 JLINK_ReadReg(R15 (PC))
T4B5C 000:367.154 - 0.004ms returns 0x20000000
T4B5C 000:367.157 JLINK_ClrBPEx(BPHandle = 0x00000007)
T4B5C 000:367.160 - 0.004ms returns 0x00
T4B5C 000:367.164 JLINK_ReadReg(R0)
T4B5C 000:367.167 - 0.004ms returns 0x00000000
T4B5C 000:367.357 JLINK_HasError()
T4B5C 000:367.362 JLINK_WriteReg(R0, 0x08001000)
T4B5C 000:367.366 - 0.005ms returns 0
T4B5C 000:367.369 JLINK_WriteReg(R1, 0x00000400)
T4B5C 000:367.375 - 0.008ms returns 0
T4B5C 000:367.380 JLINK_WriteReg(R2, 0x000000FF)
T4B5C 000:367.383 - 0.004ms returns 0
T4B5C 000:367.386 JLINK_WriteReg(R3, 0x00000000)
T4B5C 000:367.389 - 0.004ms returns 0
T4B5C 000:367.392 JLINK_WriteReg(R4, 0x00000000)
T4B5C 000:367.395 - 0.004ms returns 0
T4B5C 000:367.398 JLINK_WriteReg(R5, 0x00000000)
T4B5C 000:367.401 - 0.004ms returns 0
T4B5C 000:367.405 JLINK_WriteReg(R6, 0x00000000)
T4B5C 000:367.407 - 0.004ms returns 0
T4B5C 000:367.411 JLINK_WriteReg(R7, 0x00000000)
T4B5C 000:367.414 - 0.004ms returns 0
T4B5C 000:367.417 JLINK_WriteReg(R8, 0x00000000)
T4B5C 000:367.420 - 0.004ms returns 0
T4B5C 000:367.423 JLINK_WriteReg(R9, 0x20000174)
T4B5C 000:367.426 - 0.004ms returns 0
T4B5C 000:367.429 JLINK_WriteReg(R10, 0x00000000)
T4B5C 000:367.432 - 0.004ms returns 0
T4B5C 000:367.435 JLINK_WriteReg(R11, 0x00000000)
T4B5C 000:367.438 - 0.004ms returns 0
T4B5C 000:367.441 JLINK_WriteReg(R12, 0x00000000)
T4B5C 000:367.444 - 0.004ms returns 0
T4B5C 000:367.447 JLINK_WriteReg(R13 (SP), 0x20001000)
T4B5C 000:367.451 - 0.004ms returns 0
T4B5C 000:367.454 JLINK_WriteReg(R14, 0x20000001)
T4B5C 000:367.457 - 0.004ms returns 0
T4B5C 000:367.460 JLINK_WriteReg(R15 (PC), 0x20000020)
T4B5C 000:367.463 - 0.004ms returns 0
T4B5C 000:367.466 JLINK_WriteReg(XPSR, 0x01000000)
T4B5C 000:367.469 - 0.004ms returns 0
T4B5C 000:367.472 JLINK_WriteReg(MSP, 0x20001000)
T4B5C 000:367.475 - 0.004ms returns 0
T4B5C 000:367.479 JLINK_WriteReg(PSP, 0x20001000)
T4B5C 000:367.481 - 0.004ms returns 0
T4B5C 000:367.485 JLINK_WriteReg(CFBP, 0x00000000)
T4B5C 000:367.488 - 0.004ms returns 0
T4B5C 000:367.491 JLINK_SetBPEx(Addr = 0x20000000, Type = 0xFFFFFFF2)
T4B5C 000:367.494 - 0.004ms returns 0x00000008
T4B5C 000:367.498 JLINK_Go()
T4B5C 000:367.503   CPU_ReadMem(4 bytes @ 0xE0001000)
T4B5C 000:367.610   CPU_WriteMem(4 bytes @ 0xE0001000)
T4B5C 000:368.837 - 1.341ms
T4B5C 000:368.842 JLINK_IsHalted()
T4B5C 000:369.874   CPU_ReadMem(2 bytes @ 0x20000000)
T4B5C 000:370.023 - 1.182ms returns TRUE
T4B5C 000:370.028 JLINK_ReadReg(R15 (PC))
T4B5C 000:370.032 - 0.005ms returns 0x20000000
T4B5C 000:370.035 JLINK_ClrBPEx(BPHandle = 0x00000008)
T4B5C 000:370.038 - 0.004ms returns 0x00
T4B5C 000:370.042 JLINK_ReadReg(R0)
T4B5C 000:370.045 - 0.004ms returns 0x00000001
T4B5C 000:370.048 JLINK_HasError()
T4B5C 000:370.052 JLINK_WriteReg(R0, 0x08001000)
T4B5C 000:370.055 - 0.004ms returns 0
T4B5C 000:370.058 JLINK_WriteReg(R1, 0x00000400)
T4B5C 000:370.061 - 0.004ms returns 0
T4B5C 000:370.064 JLINK_WriteReg(R2, 0x000000FF)
T4B5C 000:370.068 - 0.004ms returns 0
T4B5C 000:370.071 JLINK_WriteReg(R3, 0x00000000)
T4B5C 000:370.074 - 0.004ms returns 0
T4B5C 000:370.077 JLINK_WriteReg(R4, 0x00000000)
T4B5C 000:370.080 - 0.004ms returns 0
T4B5C 000:370.083 JLINK_WriteReg(R5, 0x00000000)
T4B5C 000:370.086 - 0.004ms returns 0
T4B5C 000:370.089 JLINK_WriteReg(R6, 0x00000000)
T4B5C 000:370.092 - 0.004ms returns 0
T4B5C 000:370.095 JLINK_WriteReg(R7, 0x00000000)
T4B5C 000:370.099 - 0.005ms returns 0
T4B5C 000:370.102 JLINK_WriteReg(R8, 0x00000000)
T4B5C 000:370.106 - 0.004ms returns 0
T4B5C 000:370.134 JLINK_WriteReg(R9, 0x20000174)
T4B5C 000:370.137 - 0.004ms returns 0
T4B5C 000:370.140 JLINK_WriteReg(R10, 0x00000000)
T4B5C 000:370.143 - 0.004ms returns 0
T4B5C 000:370.146 JLINK_WriteReg(R11, 0x00000000)
T4B5C 000:370.149 - 0.004ms returns 0
T4B5C 000:370.152 JLINK_WriteReg(R12, 0x00000000)
T4B5C 000:370.155 - 0.004ms returns 0
T4B5C 000:370.159 JLINK_WriteReg(R13 (SP), 0x20001000)
T4B5C 000:370.162 - 0.004ms returns 0
T4B5C 000:370.165 JLINK_WriteReg(R14, 0x20000001)
T4B5C 000:370.168 - 0.004ms returns 0
T4B5C 000:370.171 JLINK_WriteReg(R15 (PC), 0x200000C0)
T4B5C 000:370.174 - 0.004ms returns 0
T4B5C 000:370.178 JLINK_WriteReg(XPSR, 0x01000000)
T4B5C 000:370.181 - 0.004ms returns 0
T4B5C 000:370.184 JLINK_WriteReg(MSP, 0x20001000)
T4B5C 000:370.187 - 0.004ms returns 0
T4B5C 000:370.190 JLINK_WriteReg(PSP, 0x20001000)
T4B5C 000:370.194 - 0.078ms returns 0
T4B5C 000:370.273 JLINK_WriteReg(CFBP, 0x00000000)
T4B5C 000:370.276 - 0.004ms returns 0
T4B5C 000:370.280 JLINK_SetBPEx(Addr = 0x20000000, Type = 0xFFFFFFF2)
T4B5C 000:370.283 - 0.005ms returns 0x00000009
T4B5C 000:370.287 JLINK_Go()
T4B5C 000:370.292   CPU_ReadMem(4 bytes @ 0xE0001000)
T4B5C 000:370.446   CPU_WriteMem(4 bytes @ 0xE0001000)
T4B5C 000:371.683 - 1.400ms
T4B5C 000:371.691 JLINK_IsHalted()
T4B5C 000:371.897 - 0.207ms returns FALSE
T4B5C 000:371.901 JLINK_HasError()
T4B5C 000:374.107 JLINK_IsHalted()
T4B5C 000:374.988   CPU_ReadMem(2 bytes @ 0x20000000)
T4B5C 000:375.147 - 1.042ms returns TRUE
T4B5C 000:375.152 JLINK_ReadReg(R15 (PC))
T4B5C 000:375.156 - 0.005ms returns 0x20000000
T4B5C 000:375.159 JLINK_ClrBPEx(BPHandle = 0x00000009)
T4B5C 000:375.162 - 0.004ms returns 0x00
T4B5C 000:375.166 JLINK_ReadReg(R0)
T4B5C 000:375.169 - 0.004ms returns 0x00000000
T4B5C 000:375.341 JLINK_HasError()
T4B5C 000:375.345 JLINK_WriteReg(R0, 0x08001400)
T4B5C 000:375.349 - 0.005ms returns 0
T4B5C 000:375.353 JLINK_WriteReg(R1, 0x00000400)
T4B5C 000:375.355 - 0.004ms returns 0
T4B5C 000:375.359 JLINK_WriteReg(R2, 0x000000FF)
T4B5C 000:375.362 - 0.004ms returns 0
T4B5C 000:375.365 JLINK_WriteReg(R3, 0x00000000)
T4B5C 000:375.368 - 0.004ms returns 0
T4B5C 000:375.371 JLINK_WriteReg(R4, 0x00000000)
T4B5C 000:375.374 - 0.004ms returns 0
T4B5C 000:375.377 JLINK_WriteReg(R5, 0x00000000)
T4B5C 000:375.380 - 0.004ms returns 0
T4B5C 000:375.383 JLINK_WriteReg(R6, 0x00000000)
T4B5C 000:375.386 - 0.004ms returns 0
T4B5C 000:375.389 JLINK_WriteReg(R7, 0x00000000)
T4B5C 000:375.392 - 0.004ms returns 0
T4B5C 000:375.396 JLINK_WriteReg(R8, 0x00000000)
T4B5C 000:375.398 - 0.004ms returns 0
T4B5C 000:375.402 JLINK_WriteReg(R9, 0x20000174)
T4B5C 000:375.404 - 0.004ms returns 0
T4B5C 000:375.408 JLINK_WriteReg(R10, 0x00000000)
T4B5C 000:375.411 - 0.004ms returns 0
T4B5C 000:375.414 JLINK_WriteReg(R11, 0x00000000)
T4B5C 000:375.417 - 0.004ms returns 0
T4B5C 000:375.420 JLINK_WriteReg(R12, 0x00000000)
T4B5C 000:375.423 - 0.004ms returns 0
T4B5C 000:375.426 JLINK_WriteReg(R13 (SP), 0x20001000)
T4B5C 000:375.429 - 0.004ms returns 0
T4B5C 000:375.432 JLINK_WriteReg(R14, 0x20000001)
T4B5C 000:375.435 - 0.004ms returns 0
T4B5C 000:375.439 JLINK_WriteReg(R15 (PC), 0x20000020)
T4B5C 000:375.441 - 0.004ms returns 0
T4B5C 000:375.445 JLINK_WriteReg(XPSR, 0x01000000)
T4B5C 000:375.448 - 0.004ms returns 0
T4B5C 000:375.451 JLINK_WriteReg(MSP, 0x20001000)
T4B5C 000:375.454 - 0.004ms returns 0
T4B5C 000:375.457 JLINK_WriteReg(PSP, 0x20001000)
T4B5C 000:375.460 - 0.004ms returns 0
T4B5C 000:375.463 JLINK_WriteReg(CFBP, 0x00000000)
T4B5C 000:375.466 - 0.004ms returns 0
T4B5C 000:375.469 JLINK_SetBPEx(Addr = 0x20000000, Type = 0xFFFFFFF2)
T4B5C 000:375.473 - 0.004ms returns 0x0000000A
T4B5C 000:375.476 JLINK_Go()
T4B5C 000:375.482   CPU_ReadMem(4 bytes @ 0xE0001000)
T4B5C 000:375.591   CPU_WriteMem(4 bytes @ 0xE0001000)
T4B5C 000:376.836 - 1.362ms
T4B5C 000:376.841 JLINK_IsHalted()
T4B5C 000:377.020 - 0.180ms returns FALSE
T4B5C 000:377.024 JLINK_HasError()
T4B5C 000:378.132 JLINK_IsHalted()
T4B5C 000:378.240 - 0.109ms returns FALSE
T4B5C 000:378.244 JLINK_HasError()
T4B5C 000:380.134 JLINK_IsHalted()
T4B5C 000:380.994   CPU_ReadMem(2 bytes @ 0x20000000)
T4B5C 000:381.160 - 1.027ms returns TRUE
T4B5C 000:381.167 JLINK_ReadReg(R15 (PC))
T4B5C 000:381.172 - 0.006ms returns 0x20000000
T4B5C 000:381.196 JLINK_ClrBPEx(BPHandle = 0x0000000A)
T4B5C 000:381.200 - 0.005ms returns 0x00
T4B5C 000:381.204 JLINK_ReadReg(R0)
T4B5C 000:381.207 - 0.005ms returns 0x00000000
T4B5C 000:381.409 JLINK_HasError()
T4B5C 000:381.415 JLINK_WriteReg(R0, 0x08001800)
T4B5C 000:381.419 - 0.006ms returns 0
T4B5C 000:381.423 JLINK_WriteReg(R1, 0x00000400)
T4B5C 000:381.426 - 0.005ms returns 0
T4B5C 000:381.430 JLINK_WriteReg(R2, 0x000000FF)
T4B5C 000:381.434 - 0.005ms returns 0
T4B5C 000:381.437 JLINK_WriteReg(R3, 0x00000000)
T4B5C 000:381.441 - 0.004ms returns 0
T4B5C 000:381.444 JLINK_WriteReg(R4, 0x00000000)
T4B5C 000:381.451 - 0.008ms returns 0
T4B5C 000:381.455 JLINK_WriteReg(R5, 0x00000000)
T4B5C 000:381.458 - 0.004ms returns 0
T4B5C 000:381.462 JLINK_WriteReg(R6, 0x00000000)
T4B5C 000:381.465 - 0.004ms returns 0
T4B5C 000:381.469 JLINK_WriteReg(R7, 0x00000000)
T4B5C 000:381.472 - 0.004ms returns 0
T4B5C 000:381.476 JLINK_WriteReg(R8, 0x00000000)
T4B5C 000:381.479 - 0.004ms returns 0
T4B5C 000:381.483 JLINK_WriteReg(R9, 0x20000174)
T4B5C 000:381.486 - 0.004ms returns 0
T4B5C 000:381.490 JLINK_WriteReg(R10, 0x00000000)
T4B5C 000:381.493 - 0.004ms returns 0
T4B5C 000:381.497 JLINK_WriteReg(R11, 0x00000000)
T4B5C 000:381.500 - 0.004ms returns 0
T4B5C 000:381.504 JLINK_WriteReg(R12, 0x00000000)
T4B5C 000:381.507 - 0.004ms returns 0
T4B5C 000:381.511 JLINK_WriteReg(R13 (SP), 0x20001000)
T4B5C 000:381.515 - 0.005ms returns 0
T4B5C 000:381.518 JLINK_WriteReg(R14, 0x20000001)
T4B5C 000:381.522 - 0.004ms returns 0
T4B5C 000:381.525 JLINK_WriteReg(R15 (PC), 0x20000020)
T4B5C 000:381.529 - 0.004ms returns 0
T4B5C 000:381.533 JLINK_WriteReg(XPSR, 0x01000000)
T4B5C 000:381.536 - 0.005ms returns 0
T4B5C 000:381.540 JLINK_WriteReg(MSP, 0x20001000)
T4B5C 000:381.543 - 0.004ms returns 0
T4B5C 000:381.547 JLINK_WriteReg(PSP, 0x20001000)
T4B5C 000:381.550 - 0.004ms returns 0
T4B5C 000:381.554 JLINK_WriteReg(CFBP, 0x00000000)
T4B5C 000:381.557 - 0.004ms returns 0
T4B5C 000:381.561 JLINK_SetBPEx(Addr = 0x20000000, Type = 0xFFFFFFF2)
T4B5C 000:381.565 - 0.006ms returns 0x0000000B
T4B5C 000:381.570 JLINK_Go()
T4B5C 000:381.576   CPU_ReadMem(4 bytes @ 0xE0001000)
T4B5C 000:381.688   CPU_WriteMem(4 bytes @ 0xE0001000)
T4B5C 000:382.939 - 1.371ms
T4B5C 000:382.944 JLINK_IsHalted()
T4B5C 000:383.992   CPU_ReadMem(2 bytes @ 0x20000000)
T4B5C 000:384.146 - 1.204ms returns TRUE
T4B5C 000:384.152 JLINK_ReadReg(R15 (PC))
T4B5C 000:384.156 - 0.005ms returns 0x20000000
T4B5C 000:384.160 JLINK_ClrBPEx(BPHandle = 0x0000000B)
T4B5C 000:384.164 - 0.005ms returns 0x00
T4B5C 000:384.168 JLINK_ReadReg(R0)
T4B5C 000:384.171 - 0.005ms returns 0x00000001
T4B5C 000:384.175 JLINK_HasError()
T4B5C 000:384.180 JLINK_WriteReg(R0, 0x08001800)
T4B5C 000:384.183 - 0.005ms returns 0
T4B5C 000:384.187 JLINK_WriteReg(R1, 0x00000400)
T4B5C 000:384.191 - 0.005ms returns 0
T4B5C 000:384.195 JLINK_WriteReg(R2, 0x000000FF)
T4B5C 000:384.198 - 0.005ms returns 0
T4B5C 000:384.202 JLINK_WriteReg(R3, 0x00000000)
T4B5C 000:384.206 - 0.005ms returns 0
T4B5C 000:384.209 JLINK_WriteReg(R4, 0x00000000)
T4B5C 000:384.213 - 0.005ms returns 0
T4B5C 000:384.217 JLINK_WriteReg(R5, 0x00000000)
T4B5C 000:384.220 - 0.005ms returns 0
T4B5C 000:384.224 JLINK_WriteReg(R6, 0x00000000)
T4B5C 000:384.227 - 0.005ms returns 0
T4B5C 000:384.231 JLINK_WriteReg(R7, 0x00000000)
T4B5C 000:384.235 - 0.005ms returns 0
T4B5C 000:384.239 JLINK_WriteReg(R8, 0x00000000)
T4B5C 000:384.242 - 0.005ms returns 0
T4B5C 000:384.246 JLINK_WriteReg(R9, 0x20000174)
T4B5C 000:384.249 - 0.005ms returns 0
T4B5C 000:384.253 JLINK_WriteReg(R10, 0x00000000)
T4B5C 000:384.257 - 0.005ms returns 0
T4B5C 000:384.261 JLINK_WriteReg(R11, 0x00000000)
T4B5C 000:384.264 - 0.005ms returns 0
T4B5C 000:384.268 JLINK_WriteReg(R12, 0x00000000)
T4B5C 000:384.271 - 0.005ms returns 0
T4B5C 000:384.275 JLINK_WriteReg(R13 (SP), 0x20001000)
T4B5C 000:384.279 - 0.005ms returns 0
T4B5C 000:384.283 JLINK_WriteReg(R14, 0x20000001)
T4B5C 000:384.286 - 0.005ms returns 0
T4B5C 000:384.290 JLINK_WriteReg(R15 (PC), 0x200000C0)
T4B5C 000:384.293 - 0.005ms returns 0
T4B5C 000:384.297 JLINK_WriteReg(XPSR, 0x01000000)
T4B5C 000:384.301 - 0.005ms returns 0
T4B5C 000:384.305 JLINK_WriteReg(MSP, 0x20001000)
T4B5C 000:384.308 - 0.005ms returns 0
T4B5C 000:384.312 JLINK_WriteReg(PSP, 0x20001000)
T4B5C 000:384.316 - 0.005ms returns 0
T4B5C 000:384.319 JLINK_WriteReg(CFBP, 0x00000000)
T4B5C 000:384.323 - 0.005ms returns 0
T4B5C 000:384.327 JLINK_SetBPEx(Addr = 0x20000000, Type = 0xFFFFFFF2)
T4B5C 000:384.331 - 0.005ms returns 0x0000000C
T4B5C 000:384.335 JLINK_Go()
T4B5C 000:384.342   CPU_ReadMem(4 bytes @ 0xE0001000)
T4B5C 000:384.462   CPU_WriteMem(4 bytes @ 0xE0001000)
T4B5C 000:385.694 - 1.369ms
T4B5C 000:385.712 JLINK_IsHalted()
T4B5C 000:385.899 - 0.191ms returns FALSE
T4B5C 000:385.907 JLINK_HasError()
T4B5C 000:387.105 JLINK_IsHalted()
T4B5C 000:387.218 - 0.115ms returns FALSE
T4B5C 000:387.223 JLINK_HasError()
T4B5C 000:389.108 JLINK_IsHalted()
T4B5C 000:389.991   CPU_ReadMem(2 bytes @ 0x20000000)
T4B5C 000:390.150 - 1.044ms returns TRUE
T4B5C 000:390.156 JLINK_ReadReg(R15 (PC))
T4B5C 000:390.161 - 0.006ms returns 0x20000000
T4B5C 000:390.166 JLINK_ClrBPEx(BPHandle = 0x0000000C)
T4B5C 000:390.169 - 0.005ms returns 0x00
T4B5C 000:390.173 JLINK_ReadReg(R0)
T4B5C 000:390.177 - 0.005ms returns 0x00000000
T4B5C 000:390.335 JLINK_HasError()
T4B5C 000:390.341 JLINK_WriteReg(R0, 0x00000001)
T4B5C 000:390.346 - 0.006ms returns 0
T4B5C 000:390.350 JLINK_WriteReg(R1, 0x00000400)
T4B5C 000:390.353 - 0.005ms returns 0
T4B5C 000:390.357 JLINK_WriteReg(R2, 0x000000FF)
T4B5C 000:390.361 - 0.005ms returns 0
T4B5C 000:390.365 JLINK_WriteReg(R3, 0x00000000)
T4B5C 000:390.368 - 0.005ms returns 0
T4B5C 000:390.372 JLINK_WriteReg(R4, 0x00000000)
T4B5C 000:390.375 - 0.005ms returns 0
T4B5C 000:390.379 JLINK_WriteReg(R5, 0x00000000)
T4B5C 000:390.383 - 0.005ms returns 0
T4B5C 000:390.387 JLINK_WriteReg(R6, 0x00000000)
T4B5C 000:390.390 - 0.005ms returns 0
T4B5C 000:390.394 JLINK_WriteReg(R7, 0x00000000)
T4B5C 000:390.398 - 0.005ms returns 0
T4B5C 000:390.401 JLINK_WriteReg(R8, 0x00000000)
T4B5C 000:390.405 - 0.005ms returns 0
T4B5C 000:390.409 JLINK_WriteReg(R9, 0x20000174)
T4B5C 000:390.412 - 0.005ms returns 0
T4B5C 000:390.416 JLINK_WriteReg(R10, 0x00000000)
T4B5C 000:390.420 - 0.005ms returns 0
T4B5C 000:390.424 JLINK_WriteReg(R11, 0x00000000)
T4B5C 000:390.427 - 0.005ms returns 0
T4B5C 000:390.431 JLINK_WriteReg(R12, 0x00000000)
T4B5C 000:390.434 - 0.005ms returns 0
T4B5C 000:390.438 JLINK_WriteReg(R13 (SP), 0x20001000)
T4B5C 000:390.442 - 0.005ms returns 0
T4B5C 000:390.446 JLINK_WriteReg(R14, 0x20000001)
T4B5C 000:390.450 - 0.005ms returns 0
T4B5C 000:390.454 JLINK_WriteReg(R15 (PC), 0x2000006E)
T4B5C 000:390.457 - 0.005ms returns 0
T4B5C 000:390.461 JLINK_WriteReg(XPSR, 0x01000000)
T4B5C 000:390.465 - 0.005ms returns 0
T4B5C 000:390.468 JLINK_WriteReg(MSP, 0x20001000)
T4B5C 000:390.472 - 0.005ms returns 0
T4B5C 000:390.476 JLINK_WriteReg(PSP, 0x20001000)
T4B5C 000:390.479 - 0.005ms returns 0
T4B5C 000:390.483 JLINK_WriteReg(CFBP, 0x00000000)
T4B5C 000:390.487 - 0.005ms returns 0
T4B5C 000:390.491 JLINK_SetBPEx(Addr = 0x20000000, Type = 0xFFFFFFF2)
T4B5C 000:390.495 - 0.005ms returns 0x0000000D
T4B5C 000:390.499 JLINK_Go()
T4B5C 000:390.506   CPU_ReadMem(4 bytes @ 0xE0001000)
T4B5C 000:390.619   CPU_WriteMem(4 bytes @ 0xE0001000)
T4B5C 000:391.838 - 1.343ms
T4B5C 000:391.846 JLINK_IsHalted()
T4B5C 000:392.867   CPU_ReadMem(2 bytes @ 0x20000000)
T4B5C 000:393.025 - 1.180ms returns TRUE
T4B5C 000:393.029 JLINK_ReadReg(R15 (PC))
T4B5C 000:393.034 - 0.005ms returns 0x20000000
T4B5C 000:393.038 JLINK_ClrBPEx(BPHandle = 0x0000000D)
T4B5C 000:393.041 - 0.005ms returns 0x00
T4B5C 000:393.045 JLINK_ReadReg(R0)
T4B5C 000:393.048 - 0.004ms returns 0x00000000
T4B5C 000:451.654 JLINK_WriteMem(0x20000000, 0x178 Bytes, ...)
T4B5C 000:451.665   Data:  00 BE 0A E0 0D 78 2D 06 68 40 08 24 40 00 00 D3 ...
T4B5C 000:451.682   CPU_WriteMem(376 bytes @ 0x20000000)
T4B5C 000:452.503 - 0.852ms returns 0x178
T4B5C 000:452.523 JLINK_HasError()
T4B5C 000:452.529 JLINK_WriteReg(R0, 0x08000000)
T4B5C 000:452.534 - 0.007ms returns 0
T4B5C 000:452.538 JLINK_WriteReg(R1, 0x00B71B00)
T4B5C 000:452.541 - 0.005ms returns 0
T4B5C 000:452.545 JLINK_WriteReg(R2, 0x00000002)
T4B5C 000:452.548 - 0.004ms returns 0
T4B5C 000:452.552 JLINK_WriteReg(R3, 0x00000000)
T4B5C 000:452.555 - 0.004ms returns 0
T4B5C 000:452.559 JLINK_WriteReg(R4, 0x00000000)
T4B5C 000:452.562 - 0.004ms returns 0
T4B5C 000:452.566 JLINK_WriteReg(R5, 0x00000000)
T4B5C 000:452.571 - 0.008ms returns 0
T4B5C 000:452.576 JLINK_WriteReg(R6, 0x00000000)
T4B5C 000:452.580 - 0.004ms returns 0
T4B5C 000:452.583 JLINK_WriteReg(R7, 0x00000000)
T4B5C 000:452.587 - 0.004ms returns 0
T4B5C 000:452.590 JLINK_WriteReg(R8, 0x00000000)
T4B5C 000:452.593 - 0.004ms returns 0
T4B5C 000:452.597 JLINK_WriteReg(R9, 0x20000174)
T4B5C 000:452.600 - 0.004ms returns 0
T4B5C 000:452.604 JLINK_WriteReg(R10, 0x00000000)
T4B5C 000:452.607 - 0.004ms returns 0
T4B5C 000:452.611 JLINK_WriteReg(R11, 0x00000000)
T4B5C 000:452.614 - 0.004ms returns 0
T4B5C 000:452.618 JLINK_WriteReg(R12, 0x00000000)
T4B5C 000:452.621 - 0.004ms returns 0
T4B5C 000:452.625 JLINK_WriteReg(R13 (SP), 0x20001000)
T4B5C 000:452.629 - 0.005ms returns 0
T4B5C 000:452.632 JLINK_WriteReg(R14, 0x20000001)
T4B5C 000:452.636 - 0.004ms returns 0
T4B5C 000:452.639 JLINK_WriteReg(R15 (PC), 0x20000038)
T4B5C 000:452.643 - 0.004ms returns 0
T4B5C 000:452.646 JLINK_WriteReg(XPSR, 0x01000000)
T4B5C 000:452.650 - 0.004ms returns 0
T4B5C 000:452.653 JLINK_WriteReg(MSP, 0x20001000)
T4B5C 000:452.657 - 0.004ms returns 0
T4B5C 000:452.660 JLINK_WriteReg(PSP, 0x20001000)
T4B5C 000:452.664 - 0.004ms returns 0
T4B5C 000:452.667 JLINK_WriteReg(CFBP, 0x00000000)
T4B5C 000:452.671 - 0.005ms returns 0
T4B5C 000:452.675 JLINK_SetBPEx(Addr = 0x20000000, Type = 0xFFFFFFF2)
T4B5C 000:452.681   CPU_ReadMem(2 bytes @ 0x20000000)
T4B5C 000:452.842 - 0.170ms returns 0x0000000E
T4B5C 000:452.848 JLINK_Go()
T4B5C 000:452.854   CPU_WriteMem(2 bytes @ 0x20000000)
T4B5C 000:453.078   CPU_ReadMem(4 bytes @ 0xE0001000)
T4B5C 000:453.316   CPU_WriteMem(4 bytes @ 0xE0001000)
T4B5C 000:454.560 - 1.714ms
T4B5C 000:454.566 JLINK_IsHalted()
T4B5C 000:455.607   CPU_ReadMem(2 bytes @ 0x20000000)
T4B5C 000:455.786 - 1.223ms returns TRUE
T4B5C 000:455.792 JLINK_ReadReg(R15 (PC))
T4B5C 000:455.797 - 0.006ms returns 0x20000000
T4B5C 000:455.802 JLINK_ClrBPEx(BPHandle = 0x0000000E)
T4B5C 000:455.806 - 0.005ms returns 0x00
T4B5C 000:455.810 JLINK_ReadReg(R0)
T4B5C 000:455.814 - 0.005ms returns 0x00000000
T4B5C 000:455.968 JLINK_WriteMem(0x20000178, 0x288 Bytes, ...)
T4B5C 000:455.974   Data:  68 05 00 20 D5 00 00 08 59 0B 00 08 3D 07 00 08 ...
T4B5C 000:455.984   CPU_WriteMem(648 bytes @ 0x20000178)
T4B5C 000:457.217 - 1.252ms returns 0x288
T4B5C 000:457.224 JLINK_WriteMem(0x20000400, 0x178 Bytes, ...)
T4B5C 000:457.228   Data:  44 15 01 21 20 46 00 F0 E5 FC 00 21 20 46 00 F0 ...
T4B5C 000:457.236   CPU_WriteMem(376 bytes @ 0x20000400)
T4B5C 000:458.030 - 0.809ms returns 0x178
T4B5C 000:458.036 JLINK_HasError()
T4B5C 000:458.042 JLINK_WriteReg(R0, 0x08000000)
T4B5C 000:458.047 - 0.006ms returns 0
T4B5C 000:458.051 JLINK_WriteReg(R1, 0x00000400)
T4B5C 000:458.055 - 0.005ms returns 0
T4B5C 000:458.060 JLINK_WriteReg(R2, 0x20000178)
T4B5C 000:458.064 - 0.005ms returns 0
T4B5C 000:458.068 JLINK_WriteReg(R3, 0x00000000)
T4B5C 000:458.072 - 0.005ms returns 0
T4B5C 000:458.077 JLINK_WriteReg(R4, 0x00000000)
T4B5C 000:458.081 - 0.006ms returns 0
T4B5C 000:458.086 JLINK_WriteReg(R5, 0x00000000)
T4B5C 000:458.090 - 0.006ms returns 0
T4B5C 000:458.094 JLINK_WriteReg(R6, 0x00000000)
T4B5C 000:458.098 - 0.007ms returns 0
T4B5C 000:458.104 JLINK_WriteReg(R7, 0x00000000)
T4B5C 000:458.108 - 0.006ms returns 0
T4B5C 000:458.135 JLINK_WriteReg(R8, 0x00000000)
T4B5C 000:458.139 - 0.006ms returns 0
T4B5C 000:458.144 JLINK_WriteReg(R9, 0x20000174)
T4B5C 000:458.148 - 0.006ms returns 0
T4B5C 000:458.153 JLINK_WriteReg(R10, 0x00000000)
T4B5C 000:458.157 - 0.006ms returns 0
T4B5C 000:458.161 JLINK_WriteReg(R11, 0x00000000)
T4B5C 000:458.165 - 0.006ms returns 0
T4B5C 000:458.170 JLINK_WriteReg(R12, 0x00000000)
T4B5C 000:458.174 - 0.006ms returns 0
T4B5C 000:458.179 JLINK_WriteReg(R13 (SP), 0x20001000)
T4B5C 000:458.183 - 0.006ms returns 0
T4B5C 000:458.188 JLINK_WriteReg(R14, 0x20000001)
T4B5C 000:458.192 - 0.006ms returns 0
T4B5C 000:458.196 JLINK_WriteReg(R15 (PC), 0x20000102)
T4B5C 000:458.201 - 0.006ms returns 0
T4B5C 000:458.205 JLINK_WriteReg(XPSR, 0x01000000)
T4B5C 000:458.213 - 0.009ms returns 0
T4B5C 000:458.218 JLINK_WriteReg(MSP, 0x20001000)
T4B5C 000:458.222 - 0.005ms returns 0
T4B5C 000:458.227 JLINK_WriteReg(PSP, 0x20001000)
T4B5C 000:458.231 - 0.006ms returns 0
T4B5C 000:458.235 JLINK_WriteReg(CFBP, 0x00000000)
T4B5C 000:458.239 - 0.006ms returns 0
T4B5C 000:458.244 JLINK_SetBPEx(Addr = 0x20000000, Type = 0xFFFFFFF2)
T4B5C 000:458.249 - 0.006ms returns 0x0000000F
T4B5C 000:458.254 JLINK_Go()
T4B5C 000:458.261   CPU_ReadMem(4 bytes @ 0xE0001000)
T4B5C 000:458.372   CPU_WriteMem(4 bytes @ 0xE0001000)
T4B5C 000:459.564 - 1.312ms
T4B5C 000:459.570 JLINK_IsHalted()
T4B5C 000:459.786 - 0.218ms returns FALSE
T4B5C 000:459.792 JLINK_HasError()
T4B5C 000:463.109 JLINK_IsHalted()
T4B5C 000:463.265 - 0.158ms returns FALSE
T4B5C 000:463.272 JLINK_HasError()
T4B5C 000:466.110 JLINK_IsHalted()
T4B5C 000:466.245 - 0.136ms returns FALSE
T4B5C 000:466.250 JLINK_HasError()
T4B5C 000:468.107 JLINK_IsHalted()
T4B5C 000:468.989   CPU_ReadMem(2 bytes @ 0x20000000)
T4B5C 000:469.147 - 1.042ms returns TRUE
T4B5C 000:469.152 JLINK_ReadReg(R15 (PC))
T4B5C 000:469.156 - 0.005ms returns 0x20000000
T4B5C 000:469.160 JLINK_ClrBPEx(BPHandle = 0x0000000F)
T4B5C 000:469.163 - 0.004ms returns 0x00
T4B5C 000:469.167 JLINK_ReadReg(R0)
T4B5C 000:469.170 - 0.004ms returns 0x00000000
T4B5C 000:469.378 JLINK_WriteMem(0x20000178, 0x288 Bytes, ...)
T4B5C 000:469.383   Data:  08 00 02 40 40 24 01 40 10 01 00 20 01 68 18 4A ...
T4B5C 000:469.392   CPU_WriteMem(648 bytes @ 0x20000178)
T4B5C 000:470.613 - 1.237ms returns 0x288
T4B5C 000:470.618 JLINK_WriteMem(0x20000400, 0x178 Bytes, ...)
T4B5C 000:470.622   Data:  00 04 01 40 03 4A 41 00 51 5A 03 4A 80 00 10 58 ...
T4B5C 000:470.627   CPU_WriteMem(376 bytes @ 0x20000400)
T4B5C 000:471.394 - 0.777ms returns 0x178
T4B5C 000:471.399 JLINK_HasError()
